
T30D4 000:039 SEGGER J-Link V6.00e Log File (0000ms, 0016ms total)
T30D4 000:039 DLL Compiled: Aug  4 2016 09:37:38 (0000ms, 0016ms total)
T30D4 000:039 Logging started @ 2018-01-31 22:07 (0000ms, 0016ms total)
T30D4 000:039 JLINK_SetWarnOutHandler(...) (0000ms, 0016ms total)
T30D4 000:039 JLINK_OpenEx(...)
Firmware: J-Link ARM-OB STM32 compiled Aug 22 2012 19:52:04
Hardware: V7.00
S/N: 305760245
Feature(s): RDI,FlashDL,FlashBP,JFlash,GDBFull  returns O.K. (0012ms, 0028ms total)
T30D4 000:051 JLINK_SetErrorOutHandler(...) (0000ms, 0028ms total)
T30D4 000:051 JLINK_ExecCommand("ProjectFile = "F:\grow\git\ABU2018-MAIN\MDK-ARM\JLinkSettings.ini"", ...).   returns 0x00 (0101ms, 0129ms total)
T30D4 000:152 JLINK_ExecCommand("Device = STM32F407VE", ...). Device "STM32F407VE" selected.  returns 0x00 (0001ms, 0130ms total)
T30D4 000:153 JLINK_ExecCommand("DisableConnectionTimeout", ...).   returns 0x01 (0000ms, 0130ms total)
T30D4 000:153 JLINK_GetHardwareVersion()  returns 0x11170 (0000ms, 0130ms total)
T30D4 000:153 JLINK_GetDLLVersion()  returns 60005 (0000ms, 0130ms total)
T30D4 000:153 JLINK_GetFirmwareString(...) (0000ms, 0130ms total)
T30D4 000:153 JLINK_GetDLLVersion()  returns 60005 (0000ms, 0130ms total)
T30D4 000:153 JLINK_GetCompileDateTime() (0000ms, 0130ms total)
T30D4 000:153 JLINK_GetFirmwareString(...) (0000ms, 0130ms total)
T30D4 000:153 JLINK_GetHardwareVersion()  returns 0x11170 (0000ms, 0130ms total)
T30D4 000:153 JLINK_TIF_Select(JLINKARM_TIF_SWD)  returns 0x00 (0001ms, 0131ms total)
T30D4 000:154 JLINK_SetSpeed(5000) (0001ms, 0132ms total)
T30D4 000:155 JLINK_GetId() >0x108 TIF>Found SWD-DP with ID 0x2BA01477 >0x0D TIF> >0x28 TIF> >0x0D TIF> >0x28 TIF> >0x0D TIF> >0x28 TIF> >0x0D TIF> >0x28 TIF> >0x0D TIF> >0x21 TIF> >0x0D TIF> >0x28 TIF> >0x0D TIF> >0x28 TIF> >0x0D TIF> >0x28 TIF> >0x0D TIF> >0x21 TIF> >0x0D TIF> >0x21 TIF> >0x0D TIF> >0x28 TIF> >0x0D TIF> >0x21 TIF> >0x0D TIF> >0x21 TIF> >0x0D TIF> >0x28 TIF> >0x0D TIF> >0x21 TIF> >0x0D TIF> >0x21 TIF> >0x0D TIF> >0x28 TIF> >0x0D TIF> >0x21 TIF> >0x0D TIF> >0x21 TIF> >0x0D TIF>
 >0x28 TIF> >0x0D TIF> >0x21 TIF> >0x0D TIF> >0x21 TIF> >0x0D TIF> >0x28 TIF> >0x0D TIF> >0x21 TIF> >0x0D TIF> >0x21 TIF> >0x108 TIF>Found SWD-DP with ID 0x2BA01477 >0x0D TIF> >0x28 TIF> >0x0D TIF> >0x28 TIF> >0x0D TIF> >0x28 TIF> >0x0D TIF> >0x28 TIF> >0x0D TIF> >0x21 TIF> >0x0D TIF> >0x28 TIF> >0x0D TIF> >0x28 TIF> >0x0D TIF> >0x21 TIF> >0x0D TIF> >0x21 TIF> >0x0D TIF> >0x21 TIF>AP-IDR: 0x24770011, Type: AHB-AP >0x0D TIF> >0x28 TIF> >0x0D TIF> >0x28 TIF> >0x0D TIF> >0x28 TIF> >0x0D TIF> >0x21 TIF>
 >0x0D TIF> >0x21 TIF> >0x0D TIF> >0x28 TIF> >0x0D TIF> >0x21 TIF> >0x0D TIF> >0x21 TIF>Found Cortex-M4 r0p1, Little endian. -- CPU_ReadMem(4 bytes @ 0xE000EDF0) -- CPU_ReadMem(4 bytes @ 0xE0002000)FPUnit: 6 code (BP) slots and 2 literal slots -- CPU_ReadMem(4 bytes @ 0xE000EDFC) -- CPU_ReadMem(4 bytes @ 0xE0001000) -- CPU_WriteMem(4 bytes @ 0xE0001000) -- CPU_ReadMem(4 bytes @ 0xE000ED88) -- CPU_WriteMem(4 bytes @ 0xE000ED88) -- CPU_ReadMem(4 bytes @ 0xE000ED88) -- CPU_WriteMem(4 bytes @ 0xE000ED88)
CoreSight components:ROMTbl 0 @ E00FF000 -- CPU_ReadMem(16 bytes @ 0xE00FF000) -- CPU_ReadMem(16 bytes @ 0xE000EFF0) -- CPU_ReadMem(16 bytes @ 0xE000EFE0)ROMTbl 0 [0]: FFF0F000, CID: B105E00D, PID: 000BB00C SCS -- CPU_ReadMem(16 bytes @ 0xE0001FF0) -- CPU_ReadMem(16 bytes @ 0xE0001FE0)ROMTbl 0 [1]: FFF02000, CID: B105E00D, PID: 003BB002 DWT -- CPU_ReadMem(16 bytes @ 0xE0002FF0) -- CPU_ReadMem(16 bytes @ 0xE0002FE0)ROMTbl 0 [2]: FFF03000, CID: B105E00D, PID: 002BB003 FPB
 -- CPU_ReadMem(16 bytes @ 0xE0000FF0) -- CPU_ReadMem(16 bytes @ 0xE0000FE0)ROMTbl 0 [3]: FFF01000, CID: B105E00D, PID: 003BB001 ITM -- CPU_ReadMem(16 bytes @ 0xE00FF010) -- CPU_ReadMem(16 bytes @ 0xE0040FF0) -- CPU_ReadMem(16 bytes @ 0xE0040FE0)ROMTbl 0 [4]: FFF41000, CID: B105900D, PID: 000BB9A1 TPIU -- CPU_ReadMem(16 bytes @ 0xE0041FF0) -- CPU_ReadMem(16 bytes @ 0xE0041FE0)ROMTbl 0 [5]: FFF42000, CID: B105900D, PID: 000BB925 ETM >0x0D TIF> >0x21 TIF>  returns 0x2BA01477 (0054ms, 0186ms total)
T30D4 000:209 JLINK_GetDLLVersion()  returns 60005 (0000ms, 0186ms total)
T30D4 000:209 JLINK_CORE_GetFound()  returns 0xE0000FF (0000ms, 0186ms total)
T30D4 000:209 JLINK_GetDebugInfo(0x100) -- Value=0xE00FF000  returns 0x00 (0000ms, 0186ms total)
T30D4 000:209 JLINK_GetDebugInfo(0x100) -- Value=0xE00FF000  returns 0x00 (0000ms, 0186ms total)
T30D4 000:209 JLINK_GetDebugInfo(0x101) -- Value=0xE0041000  returns 0x00 (0000ms, 0186ms total)
T30D4 000:209 JLINK_GetDebugInfo(0x102) -- Value=0x00000000  returns 0x00 (0000ms, 0186ms total)
T30D4 000:209 JLINK_GetDebugInfo(0x103) -- Value=0xE0040000  returns 0x00 (0000ms, 0186ms total)
T30D4 000:209 JLINK_GetDebugInfo(0x104) -- Value=0xE0000000  returns 0x00 (0000ms, 0186ms total)
T30D4 000:209 JLINK_GetDebugInfo(0x105) -- Value=0xE0001000  returns 0x00 (0000ms, 0186ms total)
T30D4 000:209 JLINK_GetDebugInfo(0x106) -- Value=0xE0002000  returns 0x00 (0000ms, 0186ms total)
T30D4 000:209 JLINK_GetDebugInfo(0x107) -- Value=0xE000E000  returns 0x00 (0000ms, 0186ms total)
T30D4 000:209 JLINK_GetDebugInfo(0x10C) -- Value=0xE000EDF0  returns 0x00 (0000ms, 0186ms total)
T30D4 000:209 JLINK_ReadMemU32(0xE000EF40, 0x0001 Items, ...) -- CPU is running -- CPU_ReadMem(4 bytes @ 0xE000EF40) - Data: 21 00 11 10  returns 0x01 (0001ms, 0187ms total)
T30D4 000:210 JLINK_ReadMemU32(0xE000EF44, 0x0001 Items, ...) -- CPU is running -- CPU_ReadMem(4 bytes @ 0xE000EF44) - Data: 11 00 00 11  returns 0x01 (0001ms, 0188ms total)
T30D4 000:211 JLINK_ReadMemU32(0xE000ED00, 0x0001 Items, ...) -- CPU is running -- CPU_ReadMem(4 bytes @ 0xE000ED00) - Data: 41 C2 0F 41  returns 0x01 (0000ms, 0188ms total)
T30D4 000:211 JLINK_SetResetType(JLINKARM_RESET_TYPE_NORMAL)  returns JLINKARM_RESET_TYPE_NORMAL (0000ms, 0188ms total)
T30D4 000:211 JLINK_Reset() -- CPU is running -- CPU_WriteMem(4 bytes @ 0xE000EDF0) -- CPU is running -- CPU_WriteMem(4 bytes @ 0xE000EDFC) >0x35 TIF> -- CPU is running -- CPU_WriteMem(4 bytes @ 0xE000ED0C) -- CPU is running -- CPU_ReadMem(4 bytes @ 0xE000EDF0) -- CPU is running -- CPU_ReadMem(4 bytes @ 0xE000EDF0) -- CPU is running -- CPU_WriteMem(4 bytes @ 0xE000EDF0) -- CPU is running -- CPU_WriteMem(4 bytes @ 0xE000EDFC) -- CPU is running -- CPU_ReadMem(4 bytes @ 0xE000EDF0)
 -- CPU_WriteMem(4 bytes @ 0xE0002000) -- CPU_ReadMem(4 bytes @ 0xE000EDFC) -- CPU_ReadMem(4 bytes @ 0xE0001000) (0022ms, 0210ms total)
T30D4 000:233 JLINK_ReadReg(R15 (PC))  returns 0x08006938 (0000ms, 0210ms total)
T30D4 000:233 JLINK_ReadReg(XPSR)  returns 0x01000000 (0000ms, 0210ms total)
T30D4 000:233 JLINK_Halt()  returns 0x00 (0000ms, 0210ms total)
T30D4 000:233 JLINK_IsHalted()  returns TRUE (0000ms, 0210ms total)
T30D4 000:233 JLINK_ReadMemU32(0xE000EDF0, 0x0001 Items, ...) -- CPU_ReadMem(4 bytes @ 0xE000EDF0) - Data: 03 00 03 00  returns 0x01 (0000ms, 0210ms total)
T30D4 000:233 JLINK_WriteU32(0xE000EDF0, 0xA05F0003) -- CPU_WriteMem(4 bytes @ 0xE000EDF0)  returns 0x00 (0001ms, 0211ms total)
T30D4 000:234 JLINK_WriteU32(0xE000EDFC, 0x01000000) -- CPU_WriteMem(4 bytes @ 0xE000EDFC)  returns 0x00 (0001ms, 0212ms total)
T30D4 000:235 JLINK_GetHWStatus(...)  returns 0x00 (0000ms, 0212ms total)
T30D4 000:235 JLINK_GetNumBPUnits(Type = 0xFFFFFF00)  returns 0x06 (0000ms, 0212ms total)
T30D4 000:235 JLINK_GetNumBPUnits(Type = 0xF0)  returns 0x2000 (0001ms, 0213ms total)
T30D4 000:236 JLINK_GetNumWPUnits()  returns 0x04 (0000ms, 0213ms total)
T30D4 000:236 JLINK_GetSpeed()  returns 0xFA0 (0000ms, 0213ms total)
T30D4 000:236 JLINK_ReadMemU32(0xE000E004, 0x0001 Items, ...) -- CPU_ReadMem(4 bytes @ 0xE000E004) - Data: 02 00 00 00  returns 0x01 (0000ms, 0213ms total)
T30D4 000:236 JLINK_ReadMemU32(0xE000E004, 0x0001 Items, ...) -- CPU_ReadMem(4 bytes @ 0xE000E004) - Data: 02 00 00 00  returns 0x01 (0001ms, 0214ms total)
T30D4 000:237 JLINK_WriteMem(0xE0001000, 0x001C Bytes, ...) - Data: 01 00 00 00 00 00 00 00 00 00 00 00 00 00 00 00 ... -- CPU_WriteMem(28 bytes @ 0xE0001000)  returns 0x1C (0001ms, 0215ms total)
T30D4 000:238 JLINK_ReadMem (0xE0001000, 0x001C Bytes, ...) -- CPU_ReadMem(28 bytes @ 0xE0001000) - Data: 01 00 00 40 00 00 00 00 00 00 00 00 00 00 00 00 ...  returns 0x00 (0001ms, 0216ms total)
T30D4 000:239 JLINK_ReadReg(R15 (PC))  returns 0x08006938 (0000ms, 0216ms total)
T30D4 000:239 JLINK_ReadReg(XPSR)  returns 0x01000000 (0000ms, 0216ms total)
T30D4 000:332 JLINK_SetResetType(JLINKARM_RESET_TYPE_NORMAL)  returns JLINKARM_RESET_TYPE_NORMAL (0000ms, 0216ms total)
T30D4 000:332 JLINK_Reset() -- CPU_WriteMem(4 bytes @ 0xE000EDF0) -- CPU_WriteMem(4 bytes @ 0xE000EDFC) >0x35 TIF> -- CPU_WriteMem(4 bytes @ 0xE000ED0C) -- CPU_ReadMem(4 bytes @ 0xE000EDF0) -- CPU_ReadMem(4 bytes @ 0xE000EDF0) -- CPU_WriteMem(4 bytes @ 0xE000EDF0) -- CPU_WriteMem(4 bytes @ 0xE000EDFC) -- CPU is running -- CPU_ReadMem(4 bytes @ 0xE000EDF0) -- CPU_WriteMem(4 bytes @ 0xE0002000) -- CPU_ReadMem(4 bytes @ 0xE000EDFC) -- CPU_ReadMem(4 bytes @ 0xE0001000) (0020ms, 0236ms total)
T30D4 000:352 JLINK_ReadReg(R15 (PC))  returns 0x08006938 (0000ms, 0236ms total)
T30D4 000:352 JLINK_ReadReg(XPSR)  returns 0x01000000 (0000ms, 0236ms total)
T30D4 000:353 JLINK_ReadMem (0x08006838, 0x003C Bytes, ...) -- CPU_ReadMem(128 bytes @ 0x08006800) -- Updating C cache (128 bytes @ 0x08006800) -- Read from C cache (60 bytes @ 0x08006838) - Data: 08 1F 00 68 20 F4 80 20 09 1F 08 60 00 20 31 49 ...  returns 0x00 (0002ms, 0238ms total)
T30D4 000:355 JLINK_ReadMem (0x08006874, 0x003C Bytes, ...) -- CPU_ReadMem(64 bytes @ 0x08006880) -- Updating C cache (64 bytes @ 0x08006880) -- Read from C cache (60 bytes @ 0x08006874) - Data: 04 28 06 D0 08 28 34 D1 07 E0 2A 4D 2A 4E 35 60 ...  returns 0x00 (0001ms, 0239ms total)
T30D4 000:356 JLINK_ReadMem (0x080068B0, 0x003C Bytes, ...) -- CPU_ReadMem(64 bytes @ 0x080068C0) -- Updating C cache (64 bytes @ 0x080068C0) -- Read from C cache (60 bytes @ 0x080068B0) - Data: C6 F3 88 16 05 FB 06 F2 09 E0 1B 4D B5 FB F1 F5 ...  returns 0x00 (0002ms, 0241ms total)
T30D4 000:358 JLINK_ReadMem (0x080068EC, 0x003C Bytes, ...) -- CPU_ReadMem(64 bytes @ 0x08006900) -- Updating C cache (64 bytes @ 0x08006900) -- Read from C cache (60 bytes @ 0x080068EC) - Data: 00 BF 00 BF 06 4D 08 35 2D 68 C5 F3 03 15 0E 4E ...  returns 0x00 (0001ms, 0242ms total)
T30D4 000:359 JLINK_ReadMem (0x08006928, 0x003C Bytes, ...) -- CPU_ReadMem(64 bytes @ 0x08006940) -- Updating C cache (64 bytes @ 0x08006940) -- Read from C cache (60 bytes @ 0x08006928) - Data: 00 24 F4 00 74 00 00 20 00 12 7A 00 78 00 00 20 ...  returns 0x00 (0001ms, 0243ms total)
T30D4 000:482 JLINK_ReadMem (0x40004C00, 0x0014 Bytes, ...) -- CPU_ReadMem(20 bytes @ 0x40004C00) - Data: 00 00 00 00 00 00 00 00 00 00 00 00 00 00 00 00 ...  returns 0x00 (0001ms, 0244ms total)
T30D4 000:483 JLINK_ReadMem (0x40004C14, 0x0004 Bytes, ...) -- CPU_ReadMem(4 bytes @ 0x40004C14) - Data: 00 00 00 00  returns 0x00 (0000ms, 0244ms total)
T30D4 000:529 JLINK_ReadMem (0x40011000, 0x0018 Bytes, ...) -- CPU_ReadMem(24 bytes @ 0x40011000) - Data: 00 00 00 00 00 00 00 00 00 00 00 00 00 00 00 00 ...  returns 0x00 (0001ms, 0245ms total)
T30D4 000:530 JLINK_ReadMem (0x40011018, 0x0004 Bytes, ...) -- CPU_ReadMem(4 bytes @ 0x40011018) - Data: 00 00 00 00  returns 0x00 (0000ms, 0245ms total)
T30D4 000:573 JLINK_ReadMem (0x40004400, 0x0018 Bytes, ...) -- CPU_ReadMem(24 bytes @ 0x40004400) - Data: 00 00 00 00 00 00 00 00 00 00 00 00 00 00 00 00 ...  returns 0x00 (0001ms, 0246ms total)
T30D4 000:574 JLINK_ReadMem (0x40004418, 0x0004 Bytes, ...) -- CPU_ReadMem(4 bytes @ 0x40004418) - Data: 00 00 00 00  returns 0x00 (0001ms, 0247ms total)
T30D4 000:613 JLINK_ReadMem (0x40004800, 0x0018 Bytes, ...) -- CPU_ReadMem(24 bytes @ 0x40004800) - Data: 00 00 00 00 00 00 00 00 00 00 00 00 00 00 00 00 ...  returns 0x00 (0000ms, 0247ms total)
T30D4 000:613 JLINK_ReadMem (0x40004818, 0x0004 Bytes, ...) -- CPU_ReadMem(4 bytes @ 0x40004818) - Data: 00 00 00 00  returns 0x00 (0001ms, 0248ms total)
T30D4 000:656 JLINK_ReadMem (0x40011400, 0x0018 Bytes, ...) -- CPU_ReadMem(24 bytes @ 0x40011400) - Data: 00 00 00 00 00 00 00 00 00 00 00 00 00 00 00 00 ...  returns 0x00 (0001ms, 0249ms total)
T30D4 000:657 JLINK_ReadMem (0x40011418, 0x0004 Bytes, ...) -- CPU_ReadMem(4 bytes @ 0x40011418) - Data: 00 00 00 00  returns 0x00 (0001ms, 0250ms total)
T2038 002:180 JLINK_SetBPEx(Addr = 0x08000274, Type = 0xFFFFFFF2)  returns 0x00000001 (0000ms, 0250ms total)
T2038 002:180 JLINK_Go() -- CPU_WriteMem(4 bytes @ 0xE0002000) -- CPU_ReadMem(4 bytes @ 0xE0001000) -- CPU_WriteMem(4 bytes @ 0xE0002008) -- CPU_WriteMem(4 bytes @ 0xE000200C) -- CPU_WriteMem(4 bytes @ 0xE0002010) -- CPU_WriteMem(4 bytes @ 0xE0002014) -- CPU_WriteMem(4 bytes @ 0xE0002018) -- CPU_WriteMem(4 bytes @ 0xE000201C) -- CPU_WriteMem(4 bytes @ 0xE0001004) (0006ms, 0256ms total)
T2038 002:287 JLINK_IsHalted()  returns TRUE (0003ms, 0259ms total)
T2038 002:290 JLINK_Halt()  returns 0x00 (0000ms, 0256ms total)
T2038 002:290 JLINK_IsHalted()  returns TRUE (0000ms, 0256ms total)
T2038 002:290 JLINK_IsHalted()  returns TRUE (0000ms, 0256ms total)
T2038 002:290 JLINK_IsHalted()  returns TRUE (0000ms, 0256ms total)
T2038 002:290 JLINK_ReadReg(R15 (PC))  returns 0x08000274 (0000ms, 0256ms total)
T2038 002:290 JLINK_ReadReg(XPSR)  returns 0x61000000 (0000ms, 0256ms total)
T2038 002:290 JLINK_ClrBPEx(BPHandle = 0x00000001)  returns 0x00 (0000ms, 0256ms total)
T2038 002:290 JLINK_ReadMemU32(0xE000ED30, 0x0001 Items, ...) -- CPU_ReadMem(4 bytes @ 0xE000ED30) - Data: 03 00 00 00  returns 0x01 (0001ms, 0257ms total)
T2038 002:291 JLINK_ReadMemU32(0xE0001028, 0x0001 Items, ...) -- CPU_ReadMem(4 bytes @ 0xE0001028) - Data: 00 00 00 00  returns 0x01 (0001ms, 0258ms total)
T2038 002:292 JLINK_ReadMemU32(0xE0001038, 0x0001 Items, ...) -- CPU_ReadMem(4 bytes @ 0xE0001038) - Data: 00 02 00 00  returns 0x01 (0000ms, 0258ms total)
T2038 002:292 JLINK_ReadMemU32(0xE0001048, 0x0001 Items, ...) -- CPU_ReadMem(4 bytes @ 0xE0001048) - Data: 00 00 00 00  returns 0x01 (0001ms, 0259ms total)
T2038 002:293 JLINK_ReadMemU32(0xE0001058, 0x0001 Items, ...) -- CPU_ReadMem(4 bytes @ 0xE0001058) - Data: 00 00 00 00  returns 0x01 (0001ms, 0260ms total)
T2038 002:294 JLINK_ReadReg(R0)  returns 0x200041C0 (0000ms, 0260ms total)
T2038 002:294 JLINK_ReadReg(R1)  returns 0x2000A1C0 (0000ms, 0260ms total)
T2038 002:294 JLINK_ReadReg(R2)  returns 0x2000A1C0 (0000ms, 0260ms total)
T2038 002:294 JLINK_ReadReg(R3)  returns 0x2000A1C0 (0000ms, 0260ms total)
T2038 002:294 JLINK_ReadReg(R4)  returns 0x00000000 (0000ms, 0260ms total)
T2038 002:294 JLINK_ReadReg(R5)  returns 0x2000415C (0000ms, 0260ms total)
T2038 002:294 JLINK_ReadReg(R6)  returns 0x00000000 (0000ms, 0260ms total)
T2038 002:294 JLINK_ReadReg(R7)  returns 0x00000000 (0000ms, 0260ms total)
T2038 002:294 JLINK_ReadReg(R8)  returns 0x00000000 (0000ms, 0260ms total)
T2038 002:294 JLINK_ReadReg(R9)  returns 0x00000000 (0000ms, 0260ms total)
T2038 002:294 JLINK_ReadReg(R10)  returns 0x08010F04 (0000ms, 0260ms total)
T2038 002:294 JLINK_ReadReg(R11)  returns 0x00000000 (0000ms, 0260ms total)
T2038 002:294 JLINK_ReadReg(R12)  returns 0x2000419C (0000ms, 0260ms total)
T2038 002:294 JLINK_ReadReg(R13 (SP))  returns 0x2000A5C0 (0000ms, 0260ms total)
T2038 002:294 JLINK_ReadReg(R14)  returns 0x0800023D (0000ms, 0260ms total)
T2038 002:294 JLINK_ReadReg(R15 (PC))  returns 0x08000274 (0000ms, 0260ms total)
T2038 002:294 JLINK_ReadReg(XPSR)  returns 0x61000000 (0000ms, 0260ms total)
T2038 002:294 JLINK_ReadReg(MSP)  returns 0x2000A5C0 (0000ms, 0260ms total)
T2038 002:294 JLINK_ReadReg(PSP)  returns 0x00000000 (0001ms, 0261ms total)
T2038 002:295 JLINK_ReadReg(CFBP)  returns 0x04000000 (0000ms, 0261ms total)
T2038 002:295 JLINK_ReadReg(FPSCR)  returns 0x03000000 (0005ms, 0266ms total)
T2038 002:300 JLINK_ReadReg(FPS0)  returns 0x00000000 (0000ms, 0266ms total)
T2038 002:300 JLINK_ReadReg(FPS1)  returns 0x00000000 (0000ms, 0266ms total)
T2038 002:300 JLINK_ReadReg(FPS2)  returns 0x00000000 (0000ms, 0266ms total)
T2038 002:300 JLINK_ReadReg(FPS3)  returns 0x00000000 (0000ms, 0266ms total)
T2038 002:300 JLINK_ReadReg(FPS4)  returns 0x00000000 (0000ms, 0266ms total)
T2038 002:300 JLINK_ReadReg(FPS5)  returns 0x00000000 (0000ms, 0266ms total)
T2038 002:300 JLINK_ReadReg(FPS6)  returns 0x00000000 (0000ms, 0266ms total)
T2038 002:300 JLINK_ReadReg(FPS7)  returns 0x00000000 (0000ms, 0266ms total)
T2038 002:300 JLINK_ReadReg(FPS8)  returns 0x00000000 (0000ms, 0266ms total)
T2038 002:300 JLINK_ReadReg(FPS9)  returns 0x00000000 (0000ms, 0266ms total)
T2038 002:300 JLINK_ReadReg(FPS10)  returns 0x00000000 (0000ms, 0266ms total)
T2038 002:300 JLINK_ReadReg(FPS11)  returns 0x00000000 (0000ms, 0266ms total)
T2038 002:300 JLINK_ReadReg(FPS12)  returns 0x00000000 (0000ms, 0266ms total)
T2038 002:300 JLINK_ReadReg(FPS13)  returns 0x00000000 (0000ms, 0266ms total)
T2038 002:300 JLINK_ReadReg(FPS14)  returns 0x00000000 (0000ms, 0266ms total)
T2038 002:300 JLINK_ReadReg(FPS15)  returns 0x00000000 (0000ms, 0266ms total)
T2038 002:300 JLINK_ReadReg(FPS16)  returns 0x00000000 (0000ms, 0266ms total)
T2038 002:300 JLINK_ReadReg(FPS17)  returns 0x00000000 (0000ms, 0266ms total)
T2038 002:300 JLINK_ReadReg(FPS18)  returns 0x00000000 (0000ms, 0266ms total)
T2038 002:300 JLINK_ReadReg(FPS19)  returns 0x00000000 (0000ms, 0266ms total)
T2038 002:300 JLINK_ReadReg(FPS20)  returns 0x00000000 (0000ms, 0266ms total)
T2038 002:300 JLINK_ReadReg(FPS21)  returns 0x00000000 (0000ms, 0266ms total)
T2038 002:300 JLINK_ReadReg(FPS22)  returns 0x00000000 (0000ms, 0266ms total)
T2038 002:300 JLINK_ReadReg(FPS23)  returns 0x00000000 (0000ms, 0266ms total)
T2038 002:300 JLINK_ReadReg(FPS24)  returns 0x00000000 (0000ms, 0266ms total)
T2038 002:300 JLINK_ReadReg(FPS25)  returns 0x00000000 (0001ms, 0267ms total)
T2038 002:301 JLINK_ReadReg(FPS26)  returns 0x00000000 (0000ms, 0267ms total)
T2038 002:301 JLINK_ReadReg(FPS27)  returns 0x00000000 (0000ms, 0267ms total)
T2038 002:301 JLINK_ReadReg(FPS28)  returns 0x00000000 (0000ms, 0267ms total)
T2038 002:301 JLINK_ReadReg(FPS29)  returns 0x00000000 (0000ms, 0267ms total)
T2038 002:301 JLINK_ReadReg(FPS30)  returns 0x00000000 (0000ms, 0267ms total)
T2038 002:301 JLINK_ReadReg(FPS31)  returns 0x00000000 (0000ms, 0267ms total)
T30D4 002:302 JLINK_ReadMem (0x40011400, 0x0018 Bytes, ...) -- CPU_ReadMem(24 bytes @ 0x40011400) - Data: 00 00 00 00 00 00 00 00 00 00 00 00 00 00 00 00 ...  returns 0x00 (0000ms, 0267ms total)
T30D4 002:302 JLINK_ReadMem (0x40011418, 0x0004 Bytes, ...) -- CPU_ReadMem(4 bytes @ 0x40011418) - Data: 00 00 00 00  returns 0x00 (0001ms, 0268ms total)
T30D4 002:303 JLINK_ReadMem (0x40004800, 0x0018 Bytes, ...) -- CPU_ReadMem(24 bytes @ 0x40004800) - Data: 00 00 00 00 00 00 00 00 00 00 00 00 00 00 00 00 ...  returns 0x00 (0001ms, 0269ms total)
T30D4 002:304 JLINK_ReadMem (0x40004818, 0x0004 Bytes, ...) -- CPU_ReadMem(4 bytes @ 0x40004818) - Data: 00 00 00 00  returns 0x00 (0001ms, 0270ms total)
T30D4 002:305 JLINK_ReadMem (0x40004400, 0x0018 Bytes, ...) -- CPU_ReadMem(24 bytes @ 0x40004400) - Data: 00 00 00 00 00 00 00 00 00 00 00 00 00 00 00 00 ...  returns 0x00 (0001ms, 0271ms total)
T30D4 002:306 JLINK_ReadMem (0x40004418, 0x0004 Bytes, ...) -- CPU_ReadMem(4 bytes @ 0x40004418) - Data: 00 00 00 00  returns 0x00 (0001ms, 0272ms total)
T30D4 002:307 JLINK_ReadMem (0x40011000, 0x0018 Bytes, ...) -- CPU_ReadMem(24 bytes @ 0x40011000) - Data: 00 00 00 00 00 00 00 00 00 00 00 00 00 00 00 00 ...  returns 0x00 (0001ms, 0273ms total)
T30D4 002:308 JLINK_ReadMem (0x40011018, 0x0004 Bytes, ...) -- CPU_ReadMem(4 bytes @ 0x40011018) - Data: 00 00 00 00  returns 0x00 (0000ms, 0273ms total)
T30D4 002:308 JLINK_ReadMem (0x40004C00, 0x0014 Bytes, ...) -- CPU_ReadMem(20 bytes @ 0x40004C00) - Data: 00 00 00 00 00 00 00 00 00 00 00 00 00 00 00 00 ...  returns 0x00 (0001ms, 0274ms total)
T30D4 002:309 JLINK_ReadMem (0x40004C14, 0x0004 Bytes, ...) -- CPU_ReadMem(4 bytes @ 0x40004C14) - Data: 00 00 00 00  returns 0x00 (0001ms, 0275ms total)
T30D4 002:310 JLINK_ReadMem (0x08000266, 0x0002 Bytes, ...) -- CPU_ReadMem(64 bytes @ 0x08000240) -- Updating C cache (64 bytes @ 0x08000240) -- Read from C cache (2 bytes @ 0x08000266) - Data: 00 23  returns 0x00 (0001ms, 0276ms total)
T30D4 002:311 JLINK_ReadMem (0x08000268, 0x003C Bytes, ...) -- CPU_ReadMem(64 bytes @ 0x08000280) -- Updating C cache (64 bytes @ 0x08000280) -- Read from C cache (60 bytes @ 0x08000268) - Data: 1A 46 01 21 18 46 09 F0 F7 FE F8 E7 10 B5 86 B0 ...  returns 0x00 (0002ms, 0278ms total)
T30D4 002:313 JLINK_ReadMem (0x08000264, 0x003C Bytes, ...) -- Read from C cache (60 bytes @ 0x08000264) - Data: 00 BF 00 23 1A 46 01 21 18 46 09 F0 F7 FE F8 E7 ...  returns 0x00 (0000ms, 0278ms total)
T30D4 002:943 JLINK_ReadMem (0x080002F2, 0x0002 Bytes, ...) -- CPU_ReadMem(64 bytes @ 0x080002C0) -- Updating C cache (64 bytes @ 0x080002C0) -- Read from C cache (2 bytes @ 0x080002F2) - Data: 4F F4  returns 0x00 (0002ms, 0280ms total)
T30D4 002:945 JLINK_ReadMem (0x080002F4, 0x003C Bytes, ...) -- CPU_ReadMem(64 bytes @ 0x08000300) -- Updating C cache (64 bytes @ 0x08000300) -- Read from C cache (60 bytes @ 0x080002F4) - Data: 7A 70 05 F0 A5 FB 03 F0 5D F9 03 F0 98 F9 95 48 ...  returns 0x00 (0001ms, 0281ms total)
T2038 007:390 JLINK_SetBPEx(Addr = 0x080002E2, Type = 0xFFFFFFF2)  returns 0x00000002 (0000ms, 0281ms total)
T2038 007:390 JLINK_Go() -- CPU_WriteMem(4 bytes @ 0xE0002000) -- CPU_ReadMem(4 bytes @ 0xE0001000) -- CPU_WriteMem(4 bytes @ 0xE0002008) (0004ms, 0285ms total)
T2038 007:495 JLINK_IsHalted()  returns FALSE (0000ms, 0285ms total)
T2038 007:596 JLINK_IsHalted()  returns FALSE (0000ms, 0285ms total)
T2038 007:697 JLINK_IsHalted()  returns FALSE (0000ms, 0285ms total)
T2038 007:799 JLINK_IsHalted()  returns FALSE (0000ms, 0285ms total)
T2038 007:900 JLINK_ReadMemU32(0xE0001004, 0x0001 Items, ...) -- CPU is running -- CPU_ReadMem(4 bytes @ 0xE0001004) - Data: DD AD 12 05  returns 0x01 (0001ms, 0286ms total)
T30D4 007:902 JLINK_ReadMem (0x40011400, 0x0018 Bytes, ...) -- CPU is running -- CPU_ReadMem(24 bytes @ 0x40011400) - Data: C0 00 00 00 00 00 00 00 D9 02 00 00 2C 20 00 00 ...  returns 0x00 (0001ms, 0287ms total)
T30D4 007:903 JLINK_ReadMem (0x40011418, 0x0004 Bytes, ...) -- CPU is running -- CPU_ReadMem(4 bytes @ 0x40011418) - Data: 00 00 00 00  returns 0x00 (0001ms, 0288ms total)
T30D4 007:904 JLINK_ReadMem (0x40004800, 0x0018 Bytes, ...) -- CPU is running -- CPU_ReadMem(24 bytes @ 0x40004800) - Data: C0 00 00 00 00 00 00 00 2D 00 00 00 2C 20 00 00 ...  returns 0x00 (0001ms, 0289ms total)
T30D4 007:905 JLINK_ReadMem (0x40004818, 0x0004 Bytes, ...) -- CPU is running -- CPU_ReadMem(4 bytes @ 0x40004818) - Data: 00 00 00 00  returns 0x00 (0001ms, 0290ms total)
T30D4 007:906 JLINK_ReadMem (0x40004400, 0x0018 Bytes, ...) -- CPU is running -- CPU_ReadMem(24 bytes @ 0x40004400) - Data: C0 00 00 00 00 00 00 00 2A 00 00 00 2C 20 00 00 ...  returns 0x00 (0001ms, 0291ms total)
T30D4 007:907 JLINK_ReadMem (0x40004418, 0x0004 Bytes, ...) -- CPU is running -- CPU_ReadMem(4 bytes @ 0x40004418) - Data: 00 00 00 00  returns 0x00 (0001ms, 0292ms total)
T30D4 007:908 JLINK_ReadMem (0x40011000, 0x0018 Bytes, ...) -- CPU is running -- CPU_ReadMem(24 bytes @ 0x40011000) - Data: C0 00 00 00 00 00 00 00 54 00 00 00 2C 20 00 00 ...  returns 0x00 (0001ms, 0293ms total)
T30D4 007:909 JLINK_ReadMem (0x40011018, 0x0004 Bytes, ...) -- CPU is running -- CPU_ReadMem(4 bytes @ 0x40011018) - Data: 00 00 00 00  returns 0x00 (0001ms, 0294ms total)
T30D4 007:910 JLINK_ReadMem (0x40004C00, 0x0014 Bytes, ...) -- CPU is running -- CPU_ReadMem(20 bytes @ 0x40004C00) - Data: C0 00 00 00 00 00 00 00 2D 00 00 00 2C 20 00 00 ...  returns 0x00 (0001ms, 0295ms total)
T30D4 007:911 JLINK_ReadMem (0x40004C14, 0x0004 Bytes, ...) -- CPU is running -- CPU_ReadMem(4 bytes @ 0x40004C14) - Data: 00 00 00 00  returns 0x00 (0001ms, 0296ms total)
T2038 007:912 JLINK_IsHalted()  returns FALSE (0001ms, 0297ms total)
T2038 008:013 JLINK_IsHalted()  returns FALSE (0000ms, 0296ms total)
T2038 008:114 JLINK_IsHalted()  returns FALSE (0000ms, 0296ms total)
T2038 008:216 JLINK_IsHalted()  returns FALSE (0000ms, 0296ms total)
T2038 008:317 JLINK_IsHalted()  returns FALSE (0000ms, 0296ms total)
T2038 008:418 JLINK_ReadMemU32(0xE0001004, 0x0001 Items, ...) -- CPU is running -- CPU_ReadMem(4 bytes @ 0xE0001004) - Data: F0 25 43 0A  returns 0x01 (0000ms, 0296ms total)
T30D4 008:419 JLINK_ReadMem (0x40011400, 0x0018 Bytes, ...) -- CPU is running -- CPU_ReadMem(24 bytes @ 0x40011400) - Data: C0 00 00 00 00 00 00 00 D9 02 00 00 2C 20 00 00 ...  returns 0x00 (0001ms, 0297ms total)
T30D4 008:420 JLINK_ReadMem (0x40011418, 0x0004 Bytes, ...) -- CPU is running -- CPU_ReadMem(4 bytes @ 0x40011418) - Data: 00 00 00 00  returns 0x00 (0001ms, 0298ms total)
T30D4 008:421 JLINK_ReadMem (0x40004800, 0x0018 Bytes, ...) -- CPU is running -- CPU_ReadMem(24 bytes @ 0x40004800) - Data: C0 00 00 00 00 00 00 00 2D 00 00 00 2C 20 00 00 ...  returns 0x00 (0001ms, 0299ms total)
T30D4 008:422 JLINK_ReadMem (0x40004818, 0x0004 Bytes, ...) -- CPU is running -- CPU_ReadMem(4 bytes @ 0x40004818) - Data: 00 00 00 00  returns 0x00 (0001ms, 0300ms total)
T30D4 008:423 JLINK_ReadMem (0x40004400, 0x0018 Bytes, ...) -- CPU is running -- CPU_ReadMem(24 bytes @ 0x40004400) - Data: C0 00 00 00 00 00 00 00 2A 00 00 00 2C 20 00 00 ...  returns 0x00 (0001ms, 0301ms total)
T30D4 008:424 JLINK_ReadMem (0x40004418, 0x0004 Bytes, ...) -- CPU is running -- CPU_ReadMem(4 bytes @ 0x40004418) - Data: 00 00 00 00  returns 0x00 (0000ms, 0301ms total)
T30D4 008:424 JLINK_ReadMem (0x40011000, 0x0018 Bytes, ...) -- CPU is running -- CPU_ReadMem(24 bytes @ 0x40011000) - Data: C0 00 00 00 00 00 00 00 54 00 00 00 2C 20 00 00 ...  returns 0x00 (0001ms, 0302ms total)
T30D4 008:425 JLINK_ReadMem (0x40011018, 0x0004 Bytes, ...) -- CPU is running -- CPU_ReadMem(4 bytes @ 0x40011018) - Data: 00 00 00 00  returns 0x00 (0001ms, 0303ms total)
T30D4 008:426 JLINK_ReadMem (0x40004C00, 0x0014 Bytes, ...) -- CPU is running -- CPU_ReadMem(20 bytes @ 0x40004C00) - Data: C0 00 00 00 00 00 00 00 2D 00 00 00 2C 20 00 00 ...  returns 0x00 (0001ms, 0304ms total)
T30D4 008:427 JLINK_ReadMem (0x40004C14, 0x0004 Bytes, ...) -- CPU is running -- CPU_ReadMem(4 bytes @ 0x40004C14) - Data: 00 00 00 00  returns 0x00 (0001ms, 0305ms total)
T2038 008:428 JLINK_IsHalted()  returns FALSE (0001ms, 0306ms total)
T2038 008:529 JLINK_IsHalted()  returns FALSE (0000ms, 0305ms total)
T2038 008:631 JLINK_IsHalted()  returns FALSE (0000ms, 0305ms total)
T2038 008:732 JLINK_IsHalted()  returns FALSE (0000ms, 0305ms total)
T2038 008:834 JLINK_IsHalted()  returns FALSE (0000ms, 0305ms total)
T2038 008:936 JLINK_ReadMemU32(0xE0001004, 0x0001 Items, ...) -- CPU is running -- CPU_ReadMem(4 bytes @ 0xE0001004) - Data: 44 7C 72 0F  returns 0x01 (0001ms, 0306ms total)
T30D4 008:937 JLINK_ReadMem (0x40011400, 0x0018 Bytes, ...) -- CPU is running -- CPU_ReadMem(24 bytes @ 0x40011400) - Data: C0 00 00 00 00 00 00 00 D9 02 00 00 2C 20 00 00 ...  returns 0x00 (0002ms, 0308ms total)
T30D4 008:939 JLINK_ReadMem (0x40011418, 0x0004 Bytes, ...) -- CPU is running -- CPU_ReadMem(4 bytes @ 0x40011418) - Data: 00 00 00 00  returns 0x00 (0001ms, 0309ms total)
T30D4 008:940 JLINK_ReadMem (0x40004800, 0x0018 Bytes, ...) -- CPU is running -- CPU_ReadMem(24 bytes @ 0x40004800) - Data: C0 00 00 00 00 00 00 00 2D 00 00 00 2C 20 00 00 ...  returns 0x00 (0001ms, 0310ms total)
T30D4 008:941 JLINK_ReadMem (0x40004818, 0x0004 Bytes, ...) -- CPU is running -- CPU_ReadMem(4 bytes @ 0x40004818) - Data: 00 00 00 00  returns 0x00 (0001ms, 0311ms total)
T30D4 008:942 JLINK_ReadMem (0x40004400, 0x0018 Bytes, ...) -- CPU is running -- CPU_ReadMem(24 bytes @ 0x40004400) - Data: C0 00 00 00 00 00 00 00 2A 00 00 00 2C 20 00 00 ...  returns 0x00 (0001ms, 0312ms total)
T30D4 008:943 JLINK_ReadMem (0x40004418, 0x0004 Bytes, ...) -- CPU is running -- CPU_ReadMem(4 bytes @ 0x40004418) - Data: 00 00 00 00  returns 0x00 (0000ms, 0312ms total)
T30D4 008:944 JLINK_ReadMem (0x40011000, 0x0018 Bytes, ...) -- CPU is running -- CPU_ReadMem(24 bytes @ 0x40011000) - Data: C0 00 00 00 00 00 00 00 54 00 00 00 2C 20 00 00 ...  returns 0x00 (0001ms, 0313ms total)
T30D4 008:945 JLINK_ReadMem (0x40011018, 0x0004 Bytes, ...) -- CPU is running -- CPU_ReadMem(4 bytes @ 0x40011018) - Data: 00 00 00 00  returns 0x00 (0001ms, 0314ms total)
T30D4 008:946 JLINK_ReadMem (0x40004C00, 0x0014 Bytes, ...) -- CPU is running -- CPU_ReadMem(20 bytes @ 0x40004C00) - Data: C0 00 00 00 00 00 00 00 2D 00 00 00 2C 20 00 00 ...  returns 0x00 (0001ms, 0315ms total)
T30D4 008:947 JLINK_ReadMem (0x40004C14, 0x0004 Bytes, ...) -- CPU is running -- CPU_ReadMem(4 bytes @ 0x40004C14) - Data: 00 00 00 00  returns 0x00 (0001ms, 0316ms total)
T2038 008:948 JLINK_IsHalted()  returns FALSE (0001ms, 0317ms total)
T2038 009:050 JLINK_IsHalted()  returns FALSE (0001ms, 0317ms total)
T30D4 009:052 JLINK_ReadMem (0x080002E2, 0x0002 Bytes, ...) -- CPU is running -- CPU_ReadMem(2 bytes @ 0x080002E2) - Data: 06 F0  returns 0x00 (0001ms, 0317ms total)
T30D4 009:053 JLINK_ReadMem (0x080002E4, 0x0002 Bytes, ...) -- CPU is running -- CPU_ReadMem(2 bytes @ 0x080002E4) - Data: 1D FA  returns 0x00 (0001ms, 0318ms total)
T30D4 009:054 JLINK_ReadMem (0x080002E6, 0x0002 Bytes, ...) -- CPU is running -- CPU_ReadMem(2 bytes @ 0x080002E6) - Data: 01 F0  returns 0x00 (0001ms, 0319ms total)
T30D4 009:055 JLINK_ReadMem (0x080002E8, 0x0002 Bytes, ...) -- CPU is running -- CPU_ReadMem(2 bytes @ 0x080002E8) - Data: 9A FD  returns 0x00 (0001ms, 0320ms total)
T30D4 009:056 JLINK_ReadMem (0x080002EA, 0x0002 Bytes, ...) -- CPU is running -- CPU_ReadMem(2 bytes @ 0x080002EA) - Data: 01 F0  returns 0x00 (0000ms, 0320ms total)
T30D4 009:056 JLINK_ReadMem (0x080002EC, 0x0002 Bytes, ...) -- CPU is running -- CPU_ReadMem(2 bytes @ 0x080002EC) - Data: C7 F8  returns 0x00 (0001ms, 0321ms total)
T30D4 009:057 JLINK_ReadMem (0x080002EE, 0x0002 Bytes, ...) -- CPU is running -- CPU_ReadMem(2 bytes @ 0x080002EE) - Data: 03 F0  returns 0x00 (0001ms, 0322ms total)
T30D4 009:058 JLINK_ReadMem (0x080002F0, 0x0002 Bytes, ...) -- CPU is running -- CPU_ReadMem(2 bytes @ 0x080002F0) - Data: BC F9  returns 0x00 (0001ms, 0323ms total)
T2038 009:151 JLINK_IsHalted()  returns FALSE (0000ms, 0323ms total)
T2038 009:252 JLINK_IsHalted()  returns FALSE (0001ms, 0324ms total)
T2038 009:354 JLINK_IsHalted()  returns FALSE (0000ms, 0323ms total)
T2038 009:455 JLINK_ReadMemU32(0xE0001004, 0x0001 Items, ...) -- CPU is running -- CPU_ReadMem(4 bytes @ 0xE0001004) - Data: 67 08 A5 14  returns 0x01 (0001ms, 0324ms total)
T30D4 009:457 JLINK_ReadMem (0x40011400, 0x0018 Bytes, ...) -- CPU is running -- CPU_ReadMem(24 bytes @ 0x40011400) - Data: C0 00 00 00 00 00 00 00 D9 02 00 00 2C 20 00 00 ...  returns 0x00 (0001ms, 0325ms total)
T30D4 009:458 JLINK_ReadMem (0x40011418, 0x0004 Bytes, ...) -- CPU is running -- CPU_ReadMem(4 bytes @ 0x40011418) - Data: 00 00 00 00  returns 0x00 (0001ms, 0326ms total)
T30D4 009:459 JLINK_ReadMem (0x40004800, 0x0018 Bytes, ...) -- CPU is running -- CPU_ReadMem(24 bytes @ 0x40004800) - Data: C0 00 00 00 00 00 00 00 2D 00 00 00 2C 20 00 00 ...  returns 0x00 (0001ms, 0327ms total)
T30D4 009:460 JLINK_ReadMem (0x40004818, 0x0004 Bytes, ...) -- CPU is running -- CPU_ReadMem(4 bytes @ 0x40004818) - Data: 00 00 00 00  returns 0x00 (0001ms, 0328ms total)
T30D4 009:461 JLINK_ReadMem (0x40004400, 0x0018 Bytes, ...) -- CPU is running -- CPU_ReadMem(24 bytes @ 0x40004400) - Data: C0 00 00 00 00 00 00 00 2A 00 00 00 2C 20 00 00 ...  returns 0x00 (0001ms, 0329ms total)
T30D4 009:462 JLINK_ReadMem (0x40004418, 0x0004 Bytes, ...) -- CPU is running -- CPU_ReadMem(4 bytes @ 0x40004418) - Data: 00 00 00 00  returns 0x00 (0000ms, 0329ms total)
T30D4 009:463 JLINK_ReadMem (0x40011000, 0x0018 Bytes, ...) -- CPU is running -- CPU_ReadMem(24 bytes @ 0x40011000) - Data: C0 00 00 00 00 00 00 00 54 00 00 00 2C 20 00 00 ...  returns 0x00 (0001ms, 0330ms total)
T30D4 009:464 JLINK_ReadMem (0x40011018, 0x0004 Bytes, ...) -- CPU is running -- CPU_ReadMem(4 bytes @ 0x40011018) - Data: 00 00 00 00  returns 0x00 (0000ms, 0330ms total)
T30D4 009:465 JLINK_ReadMem (0x40004C00, 0x0014 Bytes, ...) -- CPU is running -- CPU_ReadMem(20 bytes @ 0x40004C00) - Data: C0 00 00 00 00 00 00 00 2D 00 00 00 2C 20 00 00 ...  returns 0x00 (0000ms, 0330ms total)
T30D4 009:465 JLINK_ReadMem (0x40004C14, 0x0004 Bytes, ...) -- CPU is running -- CPU_ReadMem(4 bytes @ 0x40004C14) - Data: 00 00 00 00  returns 0x00 (0001ms, 0331ms total)
T2038 009:467 JLINK_IsHalted()  returns FALSE (0001ms, 0332ms total)
T2038 009:568 JLINK_IsHalted()  returns FALSE (0000ms, 0331ms total)
T2038 009:669 JLINK_IsHalted()  returns FALSE (0000ms, 0331ms total)
T2038 009:771 JLINK_IsHalted()  returns FALSE (0001ms, 0332ms total)
T2038 009:873 JLINK_IsHalted()  returns FALSE (0001ms, 0332ms total)
T2038 009:974 JLINK_ReadMemU32(0xE0001004, 0x0001 Items, ...) -- CPU is running -- CPU_ReadMem(4 bytes @ 0xE0001004) - Data: 88 48 D8 19  returns 0x01 (0001ms, 0332ms total)
T30D4 009:976 JLINK_ReadMem (0x40011400, 0x0018 Bytes, ...) -- CPU is running -- CPU_ReadMem(24 bytes @ 0x40011400) - Data: C0 00 00 00 00 00 00 00 D9 02 00 00 2C 20 00 00 ...  returns 0x00 (0002ms, 0334ms total)
T30D4 009:978 JLINK_ReadMem (0x40011418, 0x0004 Bytes, ...) -- CPU is running -- CPU_ReadMem(4 bytes @ 0x40011418) - Data: 00 00 00 00  returns 0x00 (0001ms, 0335ms total)
T30D4 009:980 JLINK_ReadMem (0x40004800, 0x0018 Bytes, ...) -- CPU is running -- CPU_ReadMem(24 bytes @ 0x40004800) - Data: C0 00 00 00 00 00 00 00 2D 00 00 00 2C 20 00 00 ...  returns 0x00 (0001ms, 0336ms total)
T30D4 009:981 JLINK_ReadMem (0x40004818, 0x0004 Bytes, ...) -- CPU is running -- CPU_ReadMem(4 bytes @ 0x40004818) - Data: 00 00 00 00  returns 0x00 (0000ms, 0336ms total)
T30D4 009:982 JLINK_ReadMem (0x40004400, 0x0018 Bytes, ...) -- CPU is running -- CPU_ReadMem(24 bytes @ 0x40004400) - Data: C0 00 00 00 00 00 00 00 2A 00 00 00 2C 20 00 00 ...  returns 0x00 (0001ms, 0337ms total)
T30D4 009:983 JLINK_ReadMem (0x40004418, 0x0004 Bytes, ...) -- CPU is running -- CPU_ReadMem(4 bytes @ 0x40004418) - Data: 00 00 00 00  returns 0x00 (0000ms, 0337ms total)
T30D4 009:983 JLINK_ReadMem (0x40011000, 0x0018 Bytes, ...) -- CPU is running -- CPU_ReadMem(24 bytes @ 0x40011000) - Data: C0 00 00 00 00 00 00 00 54 00 00 00 2C 20 00 00 ...  returns 0x00 (0001ms, 0338ms total)
T30D4 009:984 JLINK_ReadMem (0x40011018, 0x0004 Bytes, ...) -- CPU is running -- CPU_ReadMem(4 bytes @ 0x40011018) - Data: 00 00 00 00  returns 0x00 (0001ms, 0339ms total)
T30D4 009:985 JLINK_ReadMem (0x40004C00, 0x0014 Bytes, ...) -- CPU is running -- CPU_ReadMem(20 bytes @ 0x40004C00) - Data: C0 00 00 00 00 00 00 00 2D 00 00 00 2C 20 00 00 ...  returns 0x00 (0001ms, 0340ms total)
T30D4 009:986 JLINK_ReadMem (0x40004C14, 0x0004 Bytes, ...) -- CPU is running -- CPU_ReadMem(4 bytes @ 0x40004C14) - Data: 00 00 00 00  returns 0x00 (0001ms, 0341ms total)
T2038 009:987 JLINK_IsHalted()  returns FALSE (0001ms, 0342ms total)
T2038 010:088 JLINK_IsHalted()  returns FALSE (0001ms, 0342ms total)
T2038 010:190 JLINK_IsHalted()  returns FALSE (0000ms, 0341ms total)
T2038 010:292 JLINK_IsHalted()  returns FALSE (0000ms, 0341ms total)
T2038 010:393 JLINK_IsHalted()  returns FALSE (0000ms, 0341ms total)
T2038 010:494 JLINK_ReadMemU32(0xE0001004, 0x0001 Items, ...) -- CPU is running -- CPU_ReadMem(4 bytes @ 0xE0001004) - Data: 5E 65 0E 1F  returns 0x01 (0001ms, 0342ms total)
T30D4 010:497 JLINK_ReadMem (0x40011400, 0x0018 Bytes, ...) -- CPU is running -- CPU_ReadMem(24 bytes @ 0x40011400) - Data: C0 00 00 00 00 00 00 00 D9 02 00 00 2C 20 00 00 ...  returns 0x00 (0001ms, 0343ms total)
T30D4 010:498 JLINK_ReadMem (0x40011418, 0x0004 Bytes, ...) -- CPU is running -- CPU_ReadMem(4 bytes @ 0x40011418) - Data: 00 00 00 00  returns 0x00 (0001ms, 0344ms total)
T30D4 010:499 JLINK_ReadMem (0x40004800, 0x0018 Bytes, ...) -- CPU is running -- CPU_ReadMem(24 bytes @ 0x40004800) - Data: C0 00 00 00 00 00 00 00 2D 00 00 00 2C 20 00 00 ...  returns 0x00 (0001ms, 0345ms total)
T30D4 010:500 JLINK_ReadMem (0x40004818, 0x0004 Bytes, ...) -- CPU is running -- CPU_ReadMem(4 bytes @ 0x40004818) - Data: 00 00 00 00  returns 0x00 (0000ms, 0345ms total)
T30D4 010:501 JLINK_ReadMem (0x40004400, 0x0018 Bytes, ...) -- CPU is running -- CPU_ReadMem(24 bytes @ 0x40004400) - Data: C0 00 00 00 00 00 00 00 2A 00 00 00 2C 20 00 00 ...  returns 0x00 (0001ms, 0346ms total)
T30D4 010:502 JLINK_ReadMem (0x40004418, 0x0004 Bytes, ...) -- CPU is running -- CPU_ReadMem(4 bytes @ 0x40004418) - Data: 00 00 00 00  returns 0x00 (0000ms, 0346ms total)
T30D4 010:502 JLINK_ReadMem (0x40011000, 0x0018 Bytes, ...) -- CPU is running -- CPU_ReadMem(24 bytes @ 0x40011000) - Data: C0 00 00 00 00 00 00 00 54 00 00 00 2C 20 00 00 ...  returns 0x00 (0001ms, 0347ms total)
T30D4 010:503 JLINK_ReadMem (0x40011018, 0x0004 Bytes, ...) -- CPU is running -- CPU_ReadMem(4 bytes @ 0x40011018) - Data: 00 00 00 00  returns 0x00 (0002ms, 0349ms total)
T30D4 010:505 JLINK_ReadMem (0x40004C00, 0x0014 Bytes, ...) -- CPU is running -- CPU_ReadMem(20 bytes @ 0x40004C00) - Data: C0 00 00 00 00 00 00 00 2D 00 00 00 2C 20 00 00 ...  returns 0x00 (0001ms, 0350ms total)
T30D4 010:506 JLINK_ReadMem (0x40004C14, 0x0004 Bytes, ...) -- CPU is running -- CPU_ReadMem(4 bytes @ 0x40004C14) - Data: 00 00 00 00  returns 0x00 (0001ms, 0351ms total)
T2038 010:508 JLINK_IsHalted()  returns FALSE (0001ms, 0352ms total)
T2038 010:610 JLINK_IsHalted()  returns FALSE (0000ms, 0351ms total)
T2038 010:711 JLINK_IsHalted()  returns FALSE (0001ms, 0352ms total)
T30D4 010:718 JLINK_SetBPEx(Addr = 0x080004DC, Type = 0xFFFFFFF2) -- CPU is running -- CPU is running -- CPU_WriteMem(4 bytes @ 0xE0002000) -- CPU is running -- CPU_WriteMem(4 bytes @ 0xE000200C)  returns 0x00000003 (0001ms, 0352ms total)
T2038 010:813 JLINK_IsHalted()  returns FALSE (0000ms, 0352ms total)
T2038 010:914 JLINK_IsHalted()  returns FALSE (0001ms, 0353ms total)
T2038 011:015 JLINK_ReadMemU32(0xE0001004, 0x0001 Items, ...) -- CPU is running -- CPU_ReadMem(4 bytes @ 0xE0001004) - Data: 06 9E 44 24  returns 0x01 (0000ms, 0352ms total)
T30D4 011:016 JLINK_ReadMem (0x40011400, 0x0018 Bytes, ...) -- CPU is running -- CPU_ReadMem(24 bytes @ 0x40011400) - Data: C0 00 00 00 00 00 00 00 D9 02 00 00 2C 20 00 00 ...  returns 0x00 (0001ms, 0353ms total)
T30D4 011:017 JLINK_ReadMem (0x40011418, 0x0004 Bytes, ...) -- CPU is running -- CPU_ReadMem(4 bytes @ 0x40011418) - Data: 00 00 00 00  returns 0x00 (0001ms, 0354ms total)
T30D4 011:019 JLINK_ReadMem (0x40004800, 0x0018 Bytes, ...) -- CPU is running -- CPU_ReadMem(24 bytes @ 0x40004800) - Data: C0 00 00 00 00 00 00 00 2D 00 00 00 2C 20 00 00 ...  returns 0x00 (0001ms, 0355ms total)
T30D4 011:020 JLINK_ReadMem (0x40004818, 0x0004 Bytes, ...) -- CPU is running -- CPU_ReadMem(4 bytes @ 0x40004818) - Data: 00 00 00 00  returns 0x00 (0000ms, 0355ms total)
T30D4 011:021 JLINK_ReadMem (0x40004400, 0x0018 Bytes, ...) -- CPU is running -- CPU_ReadMem(24 bytes @ 0x40004400) - Data: C0 00 00 00 00 00 00 00 2A 00 00 00 2C 20 00 00 ...  returns 0x00 (0000ms, 0355ms total)
T30D4 011:021 JLINK_ReadMem (0x40004418, 0x0004 Bytes, ...) -- CPU is running -- CPU_ReadMem(4 bytes @ 0x40004418) - Data: 00 00 00 00  returns 0x00 (0001ms, 0356ms total)
T30D4 011:022 JLINK_ReadMem (0x40011000, 0x0018 Bytes, ...) -- CPU is running -- CPU_ReadMem(24 bytes @ 0x40011000) - Data: C0 00 00 00 00 00 00 00 54 00 00 00 2C 20 00 00 ...  returns 0x00 (0001ms, 0357ms total)
T30D4 011:023 JLINK_ReadMem (0x40011018, 0x0004 Bytes, ...) -- CPU is running -- CPU_ReadMem(4 bytes @ 0x40011018) - Data: 00 00 00 00  returns 0x00 (0001ms, 0358ms total)
T30D4 011:024 JLINK_ReadMem (0x40004C00, 0x0014 Bytes, ...) -- CPU is running -- CPU_ReadMem(20 bytes @ 0x40004C00) - Data: C0 00 00 00 00 00 00 00 2D 00 00 00 2C 20 00 00 ...  returns 0x00 (0001ms, 0359ms total)
T30D4 011:025 JLINK_ReadMem (0x40004C14, 0x0004 Bytes, ...) -- CPU is running -- CPU_ReadMem(4 bytes @ 0x40004C14) - Data: 00 00 00 00  returns 0x00 (0001ms, 0360ms total)
T2038 011:026 JLINK_IsHalted()  returns FALSE (0001ms, 0361ms total)
T30D4 011:092 JLINK_ReadMem (0x080004DC, 0x0002 Bytes, ...) -- CPU is running -- CPU_ReadMem(2 bytes @ 0x080004DC) - Data: 4F F4  returns 0x00 (0001ms, 0361ms total)
T30D4 011:093 JLINK_ReadMem (0x080004DE, 0x0002 Bytes, ...) -- CPU is running -- CPU_ReadMem(2 bytes @ 0x080004DE) - Data: A0 60  returns 0x00 (0001ms, 0362ms total)
T30D4 011:094 JLINK_ReadMem (0x080004E0, 0x0002 Bytes, ...) -- CPU is running -- CPU_ReadMem(2 bytes @ 0x080004E0) - Data: 0A F0  returns 0x00 (0001ms, 0363ms total)
T30D4 011:095 JLINK_ReadMem (0x080004E2, 0x0002 Bytes, ...) -- CPU is running -- CPU_ReadMem(2 bytes @ 0x080004E2) - Data: E2 FD  returns 0x00 (0000ms, 0363ms total)
T30D4 011:095 JLINK_ReadMem (0x080004E4, 0x0002 Bytes, ...) -- CPU is running -- CPU_ReadMem(2 bytes @ 0x080004E4) - Data: 4F F4  returns 0x00 (0001ms, 0364ms total)
T30D4 011:096 JLINK_ReadMem (0x080004E6, 0x0002 Bytes, ...) -- CPU is running -- CPU_ReadMem(2 bytes @ 0x080004E6) - Data: 61 20  returns 0x00 (0001ms, 0365ms total)
T30D4 011:097 JLINK_ReadMem (0x080004E8, 0x0002 Bytes, ...) -- CPU is running -- CPU_ReadMem(2 bytes @ 0x080004E8) - Data: 05 F0  returns 0x00 (0000ms, 0365ms total)
T30D4 011:097 JLINK_ReadMem (0x080004EA, 0x0002 Bytes, ...) -- CPU is running -- CPU_ReadMem(2 bytes @ 0x080004EA) - Data: A2 FE  returns 0x00 (0001ms, 0366ms total)
T30D4 011:098 JLINK_ReadMem (0x080004EC, 0x0002 Bytes, ...) -- CPU is running -- CPU_ReadMem(2 bytes @ 0x080004EC) - Data: 64 20  returns 0x00 (0001ms, 0367ms total)
T30D4 011:099 JLINK_ReadMem (0x080004EE, 0x0002 Bytes, ...) -- CPU is running -- CPU_ReadMem(2 bytes @ 0x080004EE) - Data: 05 F0  returns 0x00 (0001ms, 0368ms total)
T30D4 011:100 JLINK_ReadMem (0x080004F0, 0x0002 Bytes, ...) -- CPU is running -- CPU_ReadMem(2 bytes @ 0x080004F0) - Data: A9 FA  returns 0x00 (0001ms, 0369ms total)
T30D4 011:101 JLINK_ReadMem (0x080004F2, 0x0002 Bytes, ...) -- CPU is running -- CPU_ReadMem(2 bytes @ 0x080004F2) - Data: FF F7  returns 0x00 (0000ms, 0369ms total)
T30D4 011:101 JLINK_ReadMem (0x080004F4, 0x0002 Bytes, ...) -- CPU is running -- CPU_ReadMem(2 bytes @ 0x080004F4) - Data: B0 FF  returns 0x00 (0001ms, 0370ms total)
T30D4 011:102 JLINK_ReadMem (0x080004F6, 0x0002 Bytes, ...) -- CPU is running -- CPU_ReadMem(2 bytes @ 0x080004F6) - Data: 18 48  returns 0x00 (0000ms, 0370ms total)
T30D4 011:103 JLINK_ReadMem (0x080004F8, 0x0002 Bytes, ...) -- CPU is running -- CPU_ReadMem(2 bytes @ 0x080004F8) - Data: D0 F8  returns 0x00 (0000ms, 0371ms total)
T30D4 011:103 JLINK_ReadMem (0x080004FA, 0x0002 Bytes, ...) -- CPU is running -- CPU_ReadMem(2 bytes @ 0x080004FA) - Data: AC 00  returns 0x00 (0001ms, 0372ms total)
T30D4 011:104 JLINK_ReadMem (0x080004FC, 0x0002 Bytes, ...) -- CPU is running -- CPU_ReadMem(2 bytes @ 0x080004FC) - Data: 18 B9  returns 0x00 (0000ms, 0372ms total)
T30D4 011:104 JLINK_ReadMem (0x080004FE, 0x0002 Bytes, ...) -- CPU is running -- CPU_ReadMem(2 bytes @ 0x080004FE) - Data: FF F7  returns 0x00 (0001ms, 0373ms total)
T30D4 011:105 JLINK_ReadMem (0x08000500, 0x0002 Bytes, ...) -- CPU is running -- CPU_ReadMem(2 bytes @ 0x08000500) - Data: 8D FF  returns 0x00 (0001ms, 0374ms total)
T30D4 011:106 JLINK_ReadMem (0x08000502, 0x0002 Bytes, ...) -- CPU is running -- CPU_ReadMem(2 bytes @ 0x08000502) - Data: FF F7  returns 0x00 (0000ms, 0374ms total)
T30D4 011:106 JLINK_ReadMem (0x08000504, 0x0002 Bytes, ...) -- CPU is running -- CPU_ReadMem(2 bytes @ 0x08000504) - Data: 30 FF  returns 0x00 (0001ms, 0375ms total)
T30D4 011:107 JLINK_ReadMem (0x08000506, 0x0002 Bytes, ...) -- CPU is running -- CPU_ReadMem(2 bytes @ 0x08000506) - Data: 1E 21  returns 0x00 (0001ms, 0376ms total)
T30D4 011:108 JLINK_ReadMem (0x08000508, 0x0002 Bytes, ...) -- CPU is running -- CPU_ReadMem(2 bytes @ 0x08000508) - Data: 01 20  returns 0x00 (0000ms, 0376ms total)
T30D4 011:108 JLINK_ReadMem (0x0800050A, 0x0002 Bytes, ...) -- CPU is running -- CPU_ReadMem(2 bytes @ 0x0800050A) - Data: 06 F0  returns 0x00 (0001ms, 0377ms total)
T30D4 011:109 JLINK_ReadMem (0x0800050C, 0x0002 Bytes, ...) -- CPU is running -- CPU_ReadMem(2 bytes @ 0x0800050C) - Data: F7 F8  returns 0x00 (0000ms, 0377ms total)
T30D4 011:109 JLINK_ReadMem (0x0800050E, 0x0002 Bytes, ...) -- CPU is running -- CPU_ReadMem(2 bytes @ 0x0800050E) - Data: FF 20  returns 0x00 (0001ms, 0378ms total)
T30D4 011:110 JLINK_ReadMem (0x08000510, 0x0002 Bytes, ...) -- CPU is running -- CPU_ReadMem(2 bytes @ 0x08000510) - Data: 09 F0  returns 0x00 (0001ms, 0379ms total)
T2038 011:129 JLINK_IsHalted()  returns FALSE (0001ms, 0380ms total)
T2038 011:231 JLINK_IsHalted()  returns FALSE (0000ms, 0379ms total)
T2038 011:332 JLINK_IsHalted()  returns FALSE (0000ms, 0379ms total)
T2038 011:434 JLINK_IsHalted()  returns FALSE (0000ms, 0379ms total)
T2038 011:535 JLINK_ReadMemU32(0xE0001004, 0x0001 Items, ...) -- CPU is running -- CPU_ReadMem(4 bytes @ 0xE0001004) - Data: 58 F3 78 29  returns 0x01 (0001ms, 0380ms total)
T30D4 011:537 JLINK_ReadMem (0x40011400, 0x0018 Bytes, ...) -- CPU is running -- CPU_ReadMem(24 bytes @ 0x40011400) - Data: C0 00 00 00 00 00 00 00 D9 02 00 00 2C 20 00 00 ...  returns 0x00 (0001ms, 0381ms total)
T30D4 011:538 JLINK_ReadMem (0x40011418, 0x0004 Bytes, ...) -- CPU is running -- CPU_ReadMem(4 bytes @ 0x40011418) - Data: 00 00 00 00  returns 0x00 (0001ms, 0382ms total)
T30D4 011:539 JLINK_ReadMem (0x40004800, 0x0018 Bytes, ...) -- CPU is running -- CPU_ReadMem(24 bytes @ 0x40004800) - Data: C0 00 00 00 00 00 00 00 2D 00 00 00 2C 20 00 00 ...  returns 0x00 (0001ms, 0383ms total)
T30D4 011:540 JLINK_ReadMem (0x40004818, 0x0004 Bytes, ...) -- CPU is running -- CPU_ReadMem(4 bytes @ 0x40004818) - Data: 00 00 00 00  returns 0x00 (0001ms, 0384ms total)
T30D4 011:541 JLINK_ReadMem (0x40004400, 0x0018 Bytes, ...) -- CPU is running -- CPU_ReadMem(24 bytes @ 0x40004400) - Data: C0 00 00 00 00 00 00 00 2A 00 00 00 2C 20 00 00 ...  returns 0x00 (0001ms, 0385ms total)
T30D4 011:542 JLINK_ReadMem (0x40004418, 0x0004 Bytes, ...) -- CPU is running -- CPU_ReadMem(4 bytes @ 0x40004418) - Data: 00 00 00 00  returns 0x00 (0001ms, 0386ms total)
T30D4 011:543 JLINK_ReadMem (0x40011000, 0x0018 Bytes, ...) -- CPU is running -- CPU_ReadMem(24 bytes @ 0x40011000) - Data: C0 00 00 00 00 00 00 00 54 00 00 00 2C 20 00 00 ...  returns 0x00 (0001ms, 0387ms total)
T30D4 011:544 JLINK_ReadMem (0x40011018, 0x0004 Bytes, ...) -- CPU is running -- CPU_ReadMem(4 bytes @ 0x40011018) - Data: 00 00 00 00  returns 0x00 (0001ms, 0388ms total)
T30D4 011:546 JLINK_ReadMem (0x40004C00, 0x0014 Bytes, ...) -- CPU is running -- CPU_ReadMem(20 bytes @ 0x40004C00) - Data: C0 00 00 00 00 00 00 00 2D 00 00 00 2C 20 00 00 ...  returns 0x00 (0001ms, 0389ms total)
T30D4 011:547 JLINK_ReadMem (0x40004C14, 0x0004 Bytes, ...) -- CPU is running -- CPU_ReadMem(4 bytes @ 0x40004C14) - Data: 00 00 00 00  returns 0x00 (0000ms, 0389ms total)
T2038 011:548 JLINK_IsHalted()  returns FALSE (0000ms, 0389ms total)
T2038 011:649 JLINK_IsHalted()  returns FALSE (0001ms, 0390ms total)
T2038 011:750 JLINK_IsHalted()  returns FALSE (0000ms, 0389ms total)
T2038 011:852 JLINK_IsHalted()  returns FALSE (0000ms, 0389ms total)
T2038 011:953 JLINK_IsHalted()  returns FALSE (0001ms, 0390ms total)
T2038 012:055 JLINK_ReadMemU32(0xE0001004, 0x0001 Items, ...) -- CPU is running -- CPU_ReadMem(4 bytes @ 0xE0001004) - Data: 7A 00 AD 2E  returns 0x01 (0001ms, 0390ms total)
T30D4 012:056 JLINK_ReadMem (0x40011400, 0x0018 Bytes, ...) -- CPU is running -- CPU_ReadMem(24 bytes @ 0x40011400) - Data: C0 00 00 00 00 00 00 00 D9 02 00 00 2C 20 00 00 ...  returns 0x00 (0002ms, 0392ms total)
T30D4 012:058 JLINK_ReadMem (0x40011418, 0x0004 Bytes, ...) -- CPU is running -- CPU_ReadMem(4 bytes @ 0x40011418) - Data: 00 00 00 00  returns 0x00 (0000ms, 0392ms total)
T30D4 012:059 JLINK_ReadMem (0x40004800, 0x0018 Bytes, ...) -- CPU is running -- CPU_ReadMem(24 bytes @ 0x40004800) - Data: C0 00 00 00 00 00 00 00 2D 00 00 00 2C 20 00 00 ...  returns 0x00 (0001ms, 0393ms total)
T30D4 012:060 JLINK_ReadMem (0x40004818, 0x0004 Bytes, ...) -- CPU is running -- CPU_ReadMem(4 bytes @ 0x40004818) - Data: 00 00 00 00  returns 0x00 (0000ms, 0393ms total)
T30D4 012:060 JLINK_ReadMem (0x40004400, 0x0018 Bytes, ...) -- CPU is running -- CPU_ReadMem(24 bytes @ 0x40004400) - Data: C0 00 00 00 00 00 00 00 2A 00 00 00 2C 20 00 00 ...  returns 0x00 (0001ms, 0394ms total)
T30D4 012:061 JLINK_ReadMem (0x40004418, 0x0004 Bytes, ...) -- CPU is running -- CPU_ReadMem(4 bytes @ 0x40004418) - Data: 00 00 00 00  returns 0x00 (0001ms, 0395ms total)
T30D4 012:062 JLINK_ReadMem (0x40011000, 0x0018 Bytes, ...) -- CPU is running -- CPU_ReadMem(24 bytes @ 0x40011000) - Data: C0 00 00 00 00 00 00 00 54 00 00 00 2C 20 00 00 ...  returns 0x00 (0001ms, 0396ms total)
T30D4 012:063 JLINK_ReadMem (0x40011018, 0x0004 Bytes, ...) -- CPU is running -- CPU_ReadMem(4 bytes @ 0x40011018) - Data: 00 00 00 00  returns 0x00 (0001ms, 0397ms total)
T30D4 012:064 JLINK_ReadMem (0x40004C00, 0x0014 Bytes, ...) -- CPU is running -- CPU_ReadMem(20 bytes @ 0x40004C00) - Data: C0 00 00 00 00 00 00 00 2D 00 00 00 2C 20 00 00 ...  returns 0x00 (0001ms, 0398ms total)
T30D4 012:065 JLINK_ReadMem (0x40004C14, 0x0004 Bytes, ...) -- CPU is running -- CPU_ReadMem(4 bytes @ 0x40004C14) - Data: 00 00 00 00  returns 0x00 (0000ms, 0398ms total)
T2038 012:066 JLINK_IsHalted()  returns FALSE (0000ms, 0398ms total)
T2038 012:167 JLINK_IsHalted()  returns FALSE (0000ms, 0398ms total)
T2038 012:268 JLINK_IsHalted()  returns FALSE (0001ms, 0399ms total)
T2038 012:370 JLINK_IsHalted()  returns FALSE (0000ms, 0398ms total)
T2038 012:471 JLINK_IsHalted()  returns FALSE (0001ms, 0399ms total)
